T42C8 98276:225 SEGGER J-Link V6.22g Log File (0001ms, 542345ms total)
T42C8 98276:225 DLL Compiled: Jan 17 2018 16:39:42 (0001ms, 542345ms total)
T42C8 98276:225 Logging started @ 2018-01-24 16:43 (0001ms, 542345ms total)
T3918 98276:336 JLINK_EMU_GetList(InterfaceMask = 0x00000001, MaxInfos = 0x00000032) [0]: USB, S/N: 56002453  returns 0x01 (0003ms, 542348ms total)
T42C8 98277:287 JLINK_ExecCommand("Device = ATSAMD21G18A", ...). Device "ATSAMD21G18" selected.  returns 0x00 (0010ms, 542358ms total)
T3918 98277:684 JLINK_EMU_GetList(InterfaceMask = 0x00000001, MaxInfos = 0x00000032) [0]: USB, S/N: 56002453  returns 0x01 (0004ms, 542362ms total)
T42C8 98278:436 JLINK_ExecCommand("device = ATSAMD21G18A", ...). Device "ATSAMD21G18" selected.  returns 0x00 (0008ms, 542370ms total)
T42C8 98278:444 JLINK_GetHWStatus(...)  returns 0x00 (0001ms, 542371ms total)
T42C8 98278:445 JLINK_ClrRESET() (0001ms, 542372ms total)
T42C8 98278:446 JLINK_SetRESET() (0001ms, 542373ms total)
T42C8 98278:447 JLINK_ClrRESET() (0001ms, 542374ms total)
T42C8 98278:448 JLINK_ClrTCK()  returns 0xFFFFFFFF (0001ms, 542375ms total)
T42C8 98278:449 JLINK_SetRESET() (0000ms, 542375ms total)
T42C8 98278:449 JLINK_Clock()  returns 0x00 (0001ms, 542376ms total)
T42C8 98278:450 JLINK_TIF_Select(JLINKARM_TIF_SWD)  returns 0x00 (0003ms, 542379ms total)
T42C8 98278:453 JLINK_SetSpeed(50) (0001ms, 542380ms total)
T42C8 98278:454 JLINK_JTAG_StoreRaw(..., 0x108 Bits)  returns 0x00 (0000ms, 542380ms total)
T42C8 98278:454 JLINK_JTAG_GetU32(BitPos = 227) >0x108 TIF>  returns 0x0BC11477 (0006ms, 542386ms total)
T42C8 98278:460 JLINK_JTAG_StoreRaw(..., 0x08 Bits)  returns 0x00 (0001ms, 542387ms total)
T42C8 98278:461 JLINK_JTAG_StoreRaw(..., 0x03 Bits)  returns 0x08 (0000ms, 542387ms total)
T42C8 98278:461 JLINK_JTAG_StoreRaw(..., 0x28 Bits)  returns 0x0B (0000ms, 542387ms total)
T42C8 98278:461 JLINK_JTAG_GetU8(BitPos = 8) >0x33 TIF>  returns 0xB9 (0002ms, 542389ms total)
T42C8 98278:463 JLINK_JTAG_GetU32(BitPos = 11)  returns 0x0BC11477 (0000ms, 542389ms total)
T42C8 98278:463 JLINK_JTAG_GetU8(BitPos = 43)  returns 0x02 (0000ms, 542389ms total)
T42C8 98278:463 JLINK_JTAG_StoreRaw(..., 0x08 Bits)  returns 0x00 (0000ms, 542389ms total)
T42C8 98278:463 JLINK_JTAG_StoreRaw(..., 0x03 Bits)  returns 0x08 (0000ms, 542389ms total)
T42C8 98278:463 JLINK_JTAG_StoreRaw(..., 0x28 Bits)  returns 0x0B (0000ms, 542389ms total)
T42C8 98278:463 JLINK_JTAG_GetU8(BitPos = 8) >0x33 TIF>  returns 0x01 (0002ms, 542391ms total)
T42C8 98278:465 JLINK_JTAG_GetU32(BitPos = 11)  returns 0x00000000 (0000ms, 542391ms total)
T42C8 98278:465 JLINK_JTAG_GetU8(BitPos = 43)  returns 0x02 (0000ms, 542391ms total)
T42C8 98278:465 JLINK_JTAG_StoreRaw(..., 0x08 Bits)  returns 0x00 (0000ms, 542391ms total)
T42C8 98278:465 JLINK_JTAG_StoreRaw(..., 0x03 Bits)  returns 0x08 (0000ms, 542391ms total)
T42C8 98278:465 JLINK_JTAG_StoreRaw(..., 0x02 Bits)  returns 0x0B (0000ms, 542391ms total)
T42C8 98278:465 JLINK_JTAG_StoreRaw(..., 0x28 Bits)  returns 0x0D (0000ms, 542391ms total)
T42C8 98278:465 JLINK_JTAG_GetU8(BitPos = 8) >0x35 TIF>  returns 0x39 (0002ms, 542393ms total)
T42C8 98278:467 JLINK_JTAG_StoreRaw(..., 0x08 Bits)  returns 0x00 (0000ms, 542393ms total)
T42C8 98278:467 JLINK_JTAG_StoreRaw(..., 0x03 Bits)  returns 0x08 (0000ms, 542393ms total)
T42C8 98278:467 JLINK_JTAG_StoreRaw(..., 0x28 Bits)  returns 0x0B (0000ms, 542393ms total)
T42C8 98278:467 JLINK_JTAG_GetU8(BitPos = 8) >0x33 TIF>  returns 0x09 (0002ms, 542395ms total)
T42C8 98278:469 JLINK_JTAG_GetU32(BitPos = 11)  returns 0xF0000001 (0000ms, 542395ms total)
T42C8 98278:469 JLINK_JTAG_GetU8(BitPos = 43)  returns 0x03 (0000ms, 542395ms total)
T42C8 98278:469 JLINK_WriteU32(0x41002100, 0x00000010)InitTarget() >0x10B TIF> >0x0D TIF> >0x28 TIF> >0x0D TIF> >0x28 TIF> >0x0D TIF> >0x28 TIF> >0x0D TIF> >0x28 TIF> >0x0D TIF> >0x21 TIF> >0x0D TIF> >0x28 TIF> >0x0D TIF> >0x28 TIF> >0x0D TIF> >0x28 TIF> >0x0D TIF> >0x21 TIF> >0x0D TIF> >0x21 TIF> >0x0D TIF> >0x28 TIF> >0x0D TIF> >0x28 TIF> >0x0D TIF> >0x28 TIF> >0x0D TIF> >0x28 TIF> >0x0D TIF> >0x28 TIF> >0x0D TIF> >0x28 TIF> >0x0D TIF> >0x21 TIF> >0x0D TIF> >0x21 TIF> >0x0D TIF> >0x28 TIF> >0x0D TIF>
 >0x28 TIF> >0x10B TIF>Found SW-DP with ID 0x0BC11477 >0x0D TIF> >0x28 TIF> >0x0D TIF> >0x28 TIF> >0x0D TIF> >0x28 TIF> >0x0D TIF> >0x28 TIF> >0x0D TIF> >0x21 TIF> >0x0D TIF> >0x28 TIF>Scanning AP map to find all available APs >0x0D TIF> >0x28 TIF> >0x0D TIF> >0x21 TIF> >0x0D TIF> >0x21 TIF> >0x0D TIF> >0x28 TIF> >0x0D TIF> >0x21 TIF> >0x0D TIF> >0x21 TIF>AP[1]: Stopped AP scan as end of AP map has been reachedAP[0]: AHB-AP (IDR: 0x04770031)Iterating through AP map to find AHB-AP to use >0x42 TIF>
 >0x28 TIF> >0x0D TIF> >0x28 TIF> >0x0D TIF> >0x21 TIF> >0x0D TIF> >0x21 TIF> >0x42 TIF> >0x28 TIF> >0x0D TIF> >0x28 TIF> >0x0D TIF> >0x28 TIF> >0x0D TIF> >0x21 TIF> >0x0D TIF> >0x21 TIF>AP[0]: Core foundAP[0]: AHB-AP ROM base: 0x41003000 >0x0D TIF> >0x28 TIF> >0x0D TIF> >0x28 TIF> >0x0D TIF> >0x28 TIF> >0x0D TIF> >0x21 TIF> >0x0D TIF> >0x21 TIF>CPUID register: 0x410CC601. Implementer code: 0x41 (ARM)Found Cortex-M0 r0p1, Little endian. >0x0D TIF> >0x28 TIF> -- CPU_ReadMem(4 bytes @ 0xE000EDF0)
 -- CPU_ReadMem(4 bytes @ 0xE0002000)FPUnit: 4 code (BP) slots and 0 literal slots -- CPU_ReadMem(4 bytes @ 0xE000EDFC) -- CPU_ReadMem(4 bytes @ 0xE0001000) -- CPU_WriteMem(4 bytes @ 0xE0001000)CoreSight components:ROMTbl[0] @ 41003000 -- CPU_ReadMem(16 bytes @ 0x41003000) -- CPU_ReadMem(16 bytes @ 0xE00FFFF0) -- CPU_ReadMem(16 bytes @ 0xE00FFFE0)ROMTbl[0][0]: E00FF000, CID: B105100D, PID: 000BB4C0 ROM TableROMTbl[1] @ E00FF000 -- CPU_ReadMem(16 bytes @ 0xE00FF000) -- CPU_ReadMem(16 bytes @ 0xE000EFF0)
 -- CPU_ReadMem(16 bytes @ 0xE000EFE0)ROMTbl[1][0]: E000E000, CID: B105E00D, PID: 000BB008 SCS -- CPU_ReadMem(16 bytes @ 0xE0001FF0) -- CPU_ReadMem(16 bytes @ 0xE0001FE0)ROMTbl[1][1]: E0001000, CID: B105E00D, PID: 000BB00A DWT -- CPU_ReadMem(16 bytes @ 0xE0002FF0) -- CPU_ReadMem(16 bytes @ 0xE0002FE0)ROMTbl[1][2]: E0002000, CID: B105E00D, PID: 000BB00B FPB -- CPU_ReadMem(16 bytes @ 0x41006FF0) -- CPU_ReadMem(16 bytes @ 0x41006FE0)ROMTbl[0][1]: 41006000, CID: B105900D, PID: 001BB932 MTB-M0+
 -- CPU is running -- CPU_WriteMem(4 bytes @ 0x41002100)  returns 0x00 (0416ms, 542811ms total)
T42C8 98278:885 JLINK_ReadMem (0x41002101, 0x0001 Bytes, ...) -- CPU_ReadMem(1 bytes @ 0x41002101) - Data: 00  returns 0x00 (0007ms, 542818ms total)
T3918 98279:035 JLINK_EMU_GetList(InterfaceMask = 0x00000001, MaxInfos = 0x00000032) [0]: USB, S/N: 56002453  returns 0x01 (0003ms, 542821ms total)
T42C8 98279:092 JLINK_ReadMem (0x41002101, 0x0001 Bytes, ...) -- CPU_ReadMem(1 bytes @ 0x41002101) - Data: 01  returns 0x00 (0007ms, 542828ms total)
T42C8 98279:099 JLINK_ExecCommand("ProjectFile = C:\tmp\idpa\atmel\dma_debug\dma_debug\2_side_test\jlink.config", ...).   returns 0x00 (0009ms, 542837ms total)
T42C8 98280:103 JLINK_ExecCommand("Device = ATSAMD21G18A", ...). Device "ATSAMD21G18" selected.  returns 0x00 (0010ms, 542847ms total)
T42C8 98280:113 JLINK_TIF_Select(JLINKARM_TIF_SWD)  returns 0x00 (0000ms, 542847ms total)
T42C8 98280:113 JLINK_SetSpeed(688) (0001ms, 542848ms total)
T42C8 98280:114 JLINK_ResetPullsRESET(OFF) (0000ms, 542848ms total)
T42C8 98280:114 JLINK_Connect()InitTarget() >0x10B TIF> >0x0D TIF> >0x28 TIF> >0x0D TIF> >0x28 TIF> >0x0D TIF> >0x28 TIF> >0x0D TIF> >0x28 TIF> >0x0D TIF> >0x21 TIF> >0x0D TIF> >0x28 TIF> >0x0D TIF> >0x28 TIF> >0x0D TIF> >0x28 TIF> >0x0D TIF> >0x21 TIF> >0x0D TIF> >0x21 TIF> >0x10B TIF>Found SW-DP with ID 0x0BC11477 >0x0D TIF> >0x28 TIF> >0x0D TIF> >0x28 TIF> >0x0D TIF> >0x28 TIF> >0x0D TIF> >0x28 TIF> >0x0D TIF> >0x21 TIF> >0x0D TIF> >0x28 TIF>AP map detection skipped. Manually configured AP map found.
AP[0]: AHB-AP (IDR: Not set) >0x42 TIF> >0x28 TIF> >0x0D TIF> >0x28 TIF> >0x0D TIF> >0x21 TIF> >0x0D TIF> >0x21 TIF> >0x42 TIF> >0x28 TIF> >0x0D TIF> >0x28 TIF> >0x0D TIF> >0x28 TIF> >0x0D TIF> >0x21 TIF> >0x0D TIF> >0x21 TIF>AP[0]: Core foundAP[0]: AHB-AP ROM base: 0x41003000 >0x0D TIF> >0x28 TIF> >0x0D TIF> >0x28 TIF> >0x0D TIF> >0x28 TIF> >0x0D TIF> >0x21 TIF> >0x0D TIF> >0x21 TIF>CPUID register: 0x410CC601. Implementer code: 0x41 (ARM)Found Cortex-M0 r0p1, Little endian. >0x0D TIF> >0x28 TIF>
 -- CPU_ReadMem(4 bytes @ 0xE000EDF0) -- CPU_ReadMem(4 bytes @ 0xE0002000)FPUnit: 4 code (BP) slots and 0 literal slots -- CPU_ReadMem(4 bytes @ 0xE000EDFC) -- CPU_ReadMem(4 bytes @ 0xE0001000) -- CPU_WriteMem(4 bytes @ 0xE0001000)CoreSight components:ROMTbl[0] @ 41003000 -- CPU_ReadMem(16 bytes @ 0x41003000) -- CPU_ReadMem(16 bytes @ 0xE00FFFF0) -- CPU_ReadMem(16 bytes @ 0xE00FFFE0)ROMTbl[0][0]: E00FF000, CID: B105100D, PID: 000BB4C0 ROM TableROMTbl[1] @ E00FF000 -- CPU_ReadMem(16 bytes @ 0xE00FF000)
 -- CPU_ReadMem(16 bytes @ 0xE000EFF0) -- CPU_ReadMem(16 bytes @ 0xE000EFE0)ROMTbl[1][0]: E000E000, CID: B105E00D, PID: 000BB008 SCS -- CPU_ReadMem(16 bytes @ 0xE0001FF0) -- CPU_ReadMem(16 bytes @ 0xE0001FE0)ROMTbl[1][1]: E0001000, CID: B105E00D, PID: 000BB00A DWT -- CPU_ReadMem(16 bytes @ 0xE0002FF0) -- CPU_ReadMem(16 bytes @ 0xE0002FE0)ROMTbl[1][2]: E0002000, CID: B105E00D, PID: 000BB00B FPB -- CPU_ReadMem(16 bytes @ 0x41006FF0) -- CPU_ReadMem(16 bytes @ 0x41006FE0)
ROMTbl[0][1]: 41006000, CID: B105900D, PID: 001BB932 MTB-M0+  returns 0x00 (0190ms, 543038ms total)
T42C8 98280:305 JLINK_Halt()  returns 0x00 (0007ms, 543045ms total)
T42C8 98280:314 JLINK_JTAG_GetDeviceID(DeviceIndex = 0)  returns 0x00 (0000ms, 543045ms total)
T42C8 98280:314 JLINK_ReadMemU32(0x41002018, 0x0001 Items, ...) -- CPU_ReadMem(4 bytes @ 0x41002018) - Data: 05 03 01 10  returns 0x01 (0001ms, 543046ms total)
T4A94 98280:331 JLINK_IsHalted()  returns TRUE (0001ms, 543047ms total)
T4A94 98280:332 JLINK_GetMOEs(...) -- CPU_ReadMem(4 bytes @ 0xE000ED30)  returns 0x01 (0001ms, 543047ms total)
T4A94 98280:333 JLINK_ReadReg(R15 (PC))  returns 0x000008A8 (0000ms, 543047ms total)
T42C8 98280:344 JLINK_BeginDownload(Flags = 0x00) (0000ms, 543047ms total)
T42C8 98280:344 JLINK_WriteMem(0x00000000, 0x3374 Bytes, ...) - Data: 00 80 00 20 A1 08 00 00 89 08 00 00 A1 01 00 00 ...  returns 0x3374 (0001ms, 543048ms total)
T42C8 98280:345 JLINK_WriteMem(0x00003374, 0x0120 Bytes, ...) - Data: 00 00 00 00 FF FF FF FF 00 C2 01 00 00 00 08 00 ...  returns 0x120 (0000ms, 543048ms total)
T42C8 98280:357 JLINK_EndDownload()Old firmware which does not support pausing periodic actions during flash download -- -------------------------------------- -- Start of determining dirty areas in flash cache -- End of determining dirty areas -- Start of preparing flash programming -- Calculating RAM usage -- RAM usage = 2804 Bytes -- Preserving CPU registers -- Preparing memory -- Preparing target -- Downloading RAMCode -- Checking target RAM -- Preparing RAMCode -- End of preparing flash programming
 -- CPU speed could not be measured. -- Start of comparing flash -- CRC check was estimated as fastest method -- Comparing range 0x0000 - 0x34FF (53 Sectors, 13 KB), using multi-block CRC calculation -- CRC does not match for sectors 0-52 -- End of comparing flash -- Start of erasing sectors -- End of erasing sectors -- Start of flash programming -- Programming range 0x00000000 - 0x000034FF (053 Sectors, 13 KB) -- End of flash programming -- 0x0000 - 0x34FF (053 Sectors, 13 KB)
 -- Start of verifying flash -- Use CRC as verify method -- Checksum is not supported by this flash bank. Switched to CRC method. -- End of verifying flash -- Start of restoring -- Restoring RAMCode -- Restore target -- Restore memory -- Restoring CPU registers -- End of restoring -- Bank 0 @ 0x00000000: 1 range affected (13568 bytes) -- Total time needed: 0.557s (Prepare: 0.090s, Compare: 0.047s, Erase: 0.000s, Program: 0.394s, Verify: 0.013s, Restore: 0.011s)  returns 0x3500 (0559ms, 543607ms total)
T3918 98280:916 JLINK_EMU_GetList(InterfaceMask = 0x00000001, MaxInfos = 0x00000032) [0]: USB, S/N: 56002453  returns 0x01 (0002ms, 543609ms total)
T4A94 98280:918 JLINK_IsHalted()  returns TRUE (0001ms, 543610ms total)
T2E74 98281:032 JLINK_Halt()  returns 0x00 (0000ms, 543610ms total)
T2E74 98281:032 JLINK_ReadReg(R15 (PC))  returns 0x000008A8 (0000ms, 543610ms total)
T2E74 98281:032 JLINK_ReadReg(R13 (SP))  returns 0x20008000 (0000ms, 543610ms total)
T2E74 98281:036 JLINK_ReadMemHW(0x000008A8, 0x0004 Bytes, ...) -- CPU_ReadMem(4 bytes @ 0x000008A8) - Data: 04 D1 00 F0  returns 0x00 (0001ms, 543611ms total)
T2E74 98281:037 JLINK_ReadReg(R0)  returns 0x20007140 (0000ms, 543611ms total)
T2E74 98281:037 JLINK_ReadReg(R1)  returns 0x20007140 (0000ms, 543611ms total)
T2E74 98281:037 JLINK_ReadReg(R2)  returns 0x20000310 (0000ms, 543611ms total)
T2E74 98281:037 JLINK_ReadReg(R3)  returns 0x00000000 (0000ms, 543611ms total)
T2E74 98281:037 JLINK_ReadReg(R4)  returns 0x20007813 (0000ms, 543611ms total)
T2E74 98281:037 JLINK_ReadReg(R5)  returns 0x0000337C (0000ms, 543611ms total)
T2E74 98281:038 JLINK_ReadReg(R6)  returns 0x20000684 (0000ms, 543612ms total)
T2E74 98281:038 JLINK_ReadReg(R7)  returns 0x003B478F (0000ms, 543612ms total)
T2E74 98281:038 JLINK_ReadReg(R8)  returns 0x80000000 (0000ms, 543612ms total)
T2E74 98281:038 JLINK_ReadReg(R9)  returns 0x0000001D (0000ms, 543612ms total)
T2E74 98281:038 JLINK_ReadReg(R10)  returns 0x00000001 (0000ms, 543612ms total)
T2E74 98281:038 JLINK_ReadReg(R11)  returns 0x84000000 (0000ms, 543612ms total)
T2E74 98281:038 JLINK_ReadReg(R12)  returns 0x00000001 (0000ms, 543612ms total)
T2E74 98281:038 JLINK_ReadReg(R13 (SP))  returns 0x20008000 (0000ms, 543612ms total)
T2E74 98281:038 JLINK_ReadReg(R14)  returns 0x000002A3 (0000ms, 543612ms total)
T2E74 98281:038 JLINK_ReadReg(R15 (PC))  returns 0x000008A8 (0000ms, 543612ms total)
T2E74 98281:038 JLINK_ReadReg(XPSR)  returns 0x61000000 (0000ms, 543612ms total)
T2E74 98281:038 JLINK_ReadReg(MSP)  returns 0x20008000 (0000ms, 543612ms total)
T2E74 98281:038 JLINK_ReadReg(PSP)  returns 0x9FD5FFDC (0000ms, 543612ms total)
T2E74 98281:038 JLINK_ReadReg(PRIMASK)  returns 0x00000000 (0000ms, 543612ms total)
T2E74 98281:038 JLINK_ReadReg(BASEPRI)  returns 0x00000000 (0000ms, 543612ms total)
T2E74 98281:038 JLINK_ReadReg(FAULTMASK)  returns 0x00000000 (0000ms, 543612ms total)
T2E74 98281:038 JLINK_ReadReg(CONTROL)  returns 0x00000000 (0000ms, 543612ms total)
T2E74 98281:039 JLINK_ReadMemHW(0x000008A8, 0x0002 Bytes, ...) -- CPU_ReadMem(2 bytes @ 0x000008A8) - Data: 04 D1  returns 0x00 (0001ms, 543613ms total)
T2E74 98281:076 JLINK_ReadReg(R0)  returns 0x20007140 (0000ms, 543613ms total)
T2E74 98281:076 JLINK_ReadReg(R1)  returns 0x20007140 (0000ms, 543613ms total)
T2E74 98281:076 JLINK_ReadReg(R2)  returns 0x20000310 (0000ms, 543613ms total)
T2E74 98281:076 JLINK_ReadReg(R3)  returns 0x00000000 (0000ms, 543613ms total)
T2E74 98281:076 JLINK_ReadReg(R4)  returns 0x20007813 (0000ms, 543613ms total)
T2E74 98281:077 JLINK_ReadReg(R5)  returns 0x0000337C (0000ms, 543614ms total)
T2E74 98281:077 JLINK_ReadReg(R6)  returns 0x20000684 (0000ms, 543614ms total)
T2E74 98281:077 JLINK_ReadReg(R7)  returns 0x003B478F (0000ms, 543614ms total)
T2E74 98281:077 JLINK_ReadReg(R8)  returns 0x80000000 (0000ms, 543614ms total)
T2E74 98281:077 JLINK_ReadReg(R9)  returns 0x0000001D (0000ms, 543614ms total)
T2E74 98281:077 JLINK_ReadReg(R10)  returns 0x00000001 (0000ms, 543614ms total)
T2E74 98281:077 JLINK_ReadReg(R11)  returns 0x84000000 (0000ms, 543614ms total)
T2E74 98281:077 JLINK_ReadReg(R12)  returns 0x00000001 (0000ms, 543614ms total)
T2E74 98281:077 JLINK_ReadReg(R13 (SP))  returns 0x20008000 (0000ms, 543614ms total)
T2E74 98281:077 JLINK_ReadReg(R14)  returns 0x000002A3 (0000ms, 543614ms total)
T2E74 98281:077 JLINK_ReadReg(R15 (PC))  returns 0x000008A8 (0000ms, 543614ms total)
T2E74 98281:077 JLINK_ReadReg(XPSR)  returns 0x61000000 (0000ms, 543614ms total)
T2E74 98281:077 JLINK_ReadReg(MSP)  returns 0x20008000 (0000ms, 543614ms total)
T2E74 98281:077 JLINK_ReadReg(PSP)  returns 0x9FD5FFDC (0000ms, 543614ms total)
T2E74 98281:077 JLINK_ReadReg(PRIMASK)  returns 0x00000000 (0000ms, 543614ms total)
T2E74 98281:077 JLINK_ReadReg(BASEPRI)  returns 0x00000000 (0000ms, 543614ms total)
T2E74 98281:077 JLINK_ReadReg(FAULTMASK)  returns 0x00000000 (0000ms, 543614ms total)
T2E74 98281:077 JLINK_ReadReg(CONTROL)  returns 0x00000000 (0000ms, 543614ms total)
T2E74 98281:088 JLINK_ReadMemHW(0x000008A8, 0x0004 Bytes, ...) -- CPU_ReadMem(4 bytes @ 0x000008A8) - Data: 04 D1 00 F0  returns 0x00 (0002ms, 543616ms total)
T4A94 98281:131 JLINK_IsHalted()  returns TRUE (0000ms, 543616ms total)
T2E74 98281:157 JLINK_ReadMemHW(0x0000020C, 0x0002 Bytes, ...) -- CPU_ReadMem(2 bytes @ 0x0000020C) - Data: 20 21  returns 0x00 (0002ms, 543618ms total)
T2E74 98281:159 JLINK_ReadMemHW(0x0000020C, 0x0002 Bytes, ...) -- CPU_ReadMem(2 bytes @ 0x0000020C) - Data: 20 21  returns 0x00 (0002ms, 543620ms total)
T42C8 98281:183 JLINK_GetNumBPUnits(Type = 0xFFFFFF02)  returns 0x04 (0000ms, 543620ms total)
T42C8 98281:183 JLINK_SetBPEx(Addr = 0x0000020C, Type = 0xFFFFFFF2)  returns 0x00000001 (0000ms, 543620ms total)
T42C8 98281:183 JLINK_GetBPInfo(BPHandle = 1)  returns 0x00 (0000ms, 543620ms total)
T2E74 98281:202 JLINK_ReadMemHW(0x000002CA, 0x0002 Bytes, ...) -- CPU_ReadMem(2 bytes @ 0x000002CA) - Data: 0E 20  returns 0x00 (0002ms, 543622ms total)
T2E74 98281:204 JLINK_ReadMemHW(0x000002CA, 0x0002 Bytes, ...) -- CPU_ReadMem(2 bytes @ 0x000002CA) - Data: 0E 20  returns 0x00 (0001ms, 543623ms total)
T42C8 98281:206 JLINK_SetBPEx(Addr = 0x000002CA, Type = 0xFFFFFFF2)  returns 0x00000002 (0000ms, 543623ms total)
T42C8 98281:206 JLINK_GetBPInfo(BPHandle = 2)  returns 0x00 (0000ms, 543623ms total)
T2E74 98281:227 JLINK_Reset() -- CPU_ReadMem(4 bytes @ 0x200006BC) -- CPU_WriteMem(4 bytes @ 0x200006BC) -- CPU_ReadMem(4 bytes @ 0xE000EDFC) -- CPU_WriteMem(4 bytes @ 0xE000EDFC) -- CPU_WriteMem(4 bytes @ 0xE000ED0C) -- CPU_ReadMem(4 bytes @ 0xE000EDF0) -- CPU_ReadMem(4 bytes @ 0x41002100) -- CPU_WriteMem(4 bytes @ 0x41002100) -- CPU_ReadMem(4 bytes @ 0x41002100) -- CPU_WriteMem(4 bytes @ 0xE000EDFC) -- CPU_WriteMem(4 bytes @ 0xE0002000) -- CPU_ReadMem(4 bytes @ 0xE000EDFC)
 -- CPU_ReadMem(4 bytes @ 0xE0001000) -- CPU_WriteMem(4 bytes @ 0xE0001000) (0024ms, 543647ms total)
T4A94 98281:251 JLINK_IsHalted()  returns TRUE (0000ms, 543647ms total)
T4A94 98281:252 JLINK_GetMOEs(...) -- CPU_ReadMem(4 bytes @ 0xE000ED30)  returns 0x01 (0001ms, 543648ms total)
T4A94 98281:253 JLINK_ReadReg(R15 (PC))  returns 0x000008A0 (0000ms, 543648ms total)
T2E74 98281:261 JLINK_ReadReg(R15 (PC))  returns 0x000008A0 (0000ms, 543648ms total)
T2E74 98281:261 JLINK_ReadReg(R13 (SP))  returns 0x20008000 (0000ms, 543648ms total)
T2E74 98281:261 JLINK_ReadMemHW(0x000008A0, 0x0004 Bytes, ...) -- CPU_ReadMem(4 bytes @ 0x000008A0) - Data: 70 B5 0F 49  returns 0x00 (0002ms, 543650ms total)
T2E74 98281:296 JLINK_ReadMemHW(0x00000948, 0x0001 Bytes, ...) -- CPU_ReadMem(1 bytes @ 0x00000948) - Data: 10  returns 0x00 (0002ms, 543652ms total)
T2E74 98281:330 JLINK_ReadReg(R15 (PC))  returns 0x000008A0 (0000ms, 543652ms total)
T2E74 98281:330 JLINK_SetBPEx(Addr = 0x00000948, Type = 0xFFFFFFF2)  returns 0x00000003 (0000ms, 543652ms total)
T2E74 98281:330 JLINK_GetBPInfo(BPHandle = 3)  returns 0x00 (0000ms, 543652ms total)
T2E74 98281:330 JLINK_Go() -- CPU_WriteMem(4 bytes @ 0xE0002000) -- CPU_WriteMem(4 bytes @ 0xE0002000) -- CPU_WriteMem(4 bytes @ 0xE0002000) -- CPU_ReadMem(4 bytes @ 0xE0001000) -- CPU_WriteMem(4 bytes @ 0xE000ED30) -- CPU_WriteMem(4 bytes @ 0xE0001000) -- CPU_WriteMem(4 bytes @ 0xE0002008) -- CPU_WriteMem(4 bytes @ 0xE000200C) -- CPU_WriteMem(4 bytes @ 0xE0002010) -- CPU_WriteMem(4 bytes @ 0xE0002014) -- CPU_WriteMem(4 bytes @ 0xE0001004) (0012ms, 543664ms total)
T4A94 98281:343 JLINK_IsHalted() -- CPU_ReadMem(4 bytes @ 0x41002100)  returns FALSE (0002ms, 543666ms total)
T4A94 98281:381 JLINK_IsHalted()  returns TRUE (0007ms, 543671ms total)
T4A94 98281:388 JLINK_GetMOEs(...) -- CPU_ReadMem(4 bytes @ 0xE000ED30)  returns 0x01 (0001ms, 543665ms total)
T4A94 98281:389 JLINK_ReadReg(R15 (PC))  returns 0x00000948 (0000ms, 543665ms total)
T4A94 98281:389 JLINK_WriteU32(0xE000EDFC, 0x01000000) -- CPU_WriteMem(4 bytes @ 0xE000EDFC)  returns 0x00 (0001ms, 543666ms total)
T4A94 98281:390 JLINK_ReadMem (0xE0001000, 0x0004 Bytes, ...) -- CPU_ReadMem(4 bytes @ 0xE0001000) - Data: 00 00 00 20  returns 0x00 (0002ms, 543668ms total)
T4A94 98281:392 JLINK_WriteU32(0xE0001000, 0x20000001)  returns 0x00 (0000ms, 543668ms total)
T4A94 98281:392 JLINK_WriteU32(0xE0001028, 0x00000100)  returns 0x00 (0000ms, 543668ms total)
T4A94 98281:392 JLINK_ReadMem (0xE0001028, 0x0004 Bytes, ...) -- CPU_WriteMem(4 bytes @ 0xE0001028) -- CPU_ReadMem(4 bytes @ 0xE0001028) - Data: 00 00 00 00  returns 0x00 (0002ms, 543670ms total)
T4A94 98281:394 JLINK_WriteU32(0xE0001024, 0x0000001F)  returns 0x00 (0000ms, 543670ms total)
T4A94 98281:394 JLINK_ReadMem (0xE0001024, 0x0004 Bytes, ...) -- CPU_WriteMem(4 bytes @ 0xE0001024) -- CPU_ReadMem(4 bytes @ 0xE0001024) - Data: 1F 00 00 00  returns 0x00 (0003ms, 543673ms total)
T4A94 98281:397 JLINK_WriteU32(0xE0001038, 0x00000100)  returns 0x00 (0000ms, 543673ms total)
T4A94 98281:397 JLINK_ReadMem (0xE0001038, 0x0004 Bytes, ...) -- CPU_WriteMem(4 bytes @ 0xE0001038) -- CPU_ReadMem(4 bytes @ 0xE0001038) - Data: 00 00 00 00  returns 0x00 (0003ms, 543676ms total)
T4A94 98281:400 JLINK_WriteU32(0xE0001034, 0x0000001F)  returns 0x00 (0000ms, 543676ms total)
T4A94 98281:400 JLINK_ReadMem (0xE0001034, 0x0004 Bytes, ...) -- CPU_WriteMem(4 bytes @ 0xE0001034) -- CPU_ReadMem(4 bytes @ 0xE0001034) - Data: 1F 00 00 00  returns 0x00 (0002ms, 543678ms total)
T4A94 98281:402 JLINK_WriteU32(0xE0001020, 0x00000000)  returns 0x00 (0000ms, 543678ms total)
T4A94 98281:402 JLINK_WriteU32(0xE0001024, 0x00000000)  returns 0x00 (0001ms, 543679ms total)
T4A94 98281:403 JLINK_WriteU32(0xE0001028, 0x00000000)  returns 0x00 (0000ms, 543679ms total)
T4A94 98281:403 JLINK_WriteU32(0xE0001030, 0x00000000)  returns 0x00 (0000ms, 543679ms total)
T4A94 98281:403 JLINK_WriteU32(0xE0001034, 0x00000000)  returns 0x00 (0000ms, 543679ms total)
T4A94 98281:403 JLINK_WriteU32(0xE0001038, 0x00000000)  returns 0x00 (0000ms, 543679ms total)
T4A94 98281:403 JLINK_GetBPInfo(BPHandle = 3)  returns 0x00 (0000ms, 543679ms total)
T4A94 98281:403 JLINK_ClrBPEx(BPHandle = 0x00000003)  returns 0x00 (0000ms, 543679ms total)
T42C8 98281:404 JLINK_ReadReg(R0)  returns 0x41004000 (0000ms, 543679ms total)
T42C8 98281:404 JLINK_ReadReg(R1)  returns 0x00000300 (0000ms, 543679ms total)
T42C8 98281:404 JLINK_ReadReg(R2)  returns 0x00000080 (0000ms, 543679ms total)
T42C8 98281:404 JLINK_ReadReg(R3)  returns 0x00000082 (0000ms, 543679ms total)
T42C8 98281:404 JLINK_ReadReg(R4)  returns 0x20000120 (0000ms, 543679ms total)
T42C8 98281:404 JLINK_ReadReg(R5)  returns 0x00003374 (0000ms, 543679ms total)
T42C8 98281:404 JLINK_ReadReg(R6)  returns 0x20000684 (0000ms, 543679ms total)
T42C8 98281:404 JLINK_ReadReg(R7)  returns 0x003B478F (0000ms, 543679ms total)
T42C8 98281:404 JLINK_ReadReg(R8)  returns 0x80000000 (0000ms, 543679ms total)
T42C8 98281:404 JLINK_ReadReg(R9)  returns 0x0000001D (0000ms, 543679ms total)
T42C8 98281:404 JLINK_ReadReg(R10)  returns 0x00000001 (0000ms, 543679ms total)
T42C8 98281:404 JLINK_ReadReg(R11)  returns 0x84000000 (0000ms, 543679ms total)
T42C8 98281:404 JLINK_ReadReg(R12)  returns 0x200005D8 (0000ms, 543679ms total)
T42C8 98281:404 JLINK_ReadReg(R13 (SP))  returns 0x20007FF0 (0000ms, 543679ms total)
T42C8 98281:404 JLINK_ReadReg(R14)  returns 0x000008B3 (0000ms, 543679ms total)
T42C8 98281:404 JLINK_ReadReg(R15 (PC))  returns 0x00000948 (0000ms, 543679ms total)
T42C8 98281:404 JLINK_ReadReg(APSR)  returns 0x00000000 (0000ms, 543679ms total)
T42C8 98281:404 JLINK_ReadReg(MSP)  returns 0x20007FF0 (0000ms, 543679ms total)
T42C8 98281:404 JLINK_ReadReg(PSP)  returns 0x9FD5FFDC (0000ms, 543679ms total)
T42C8 98281:404 JLINK_ReadReg(XPSR)  returns 0x01000000 (0000ms, 543679ms total)
T42C8 98281:404 JLINK_ReadReg(IPSR)  returns 0x00000000 (0000ms, 543679ms total)
T42C8 98281:404 JLINK_ReadReg(EPSR)  returns 0x01000000 (0000ms, 543679ms total)
T42C8 98281:405 JLINK_ReadReg(PRIMASK)  returns 0x00000000 (0000ms, 543680ms total)
T42C8 98281:405 JLINK_ReadReg(FAULTMASK)  returns 0x00000000 (0000ms, 543680ms total)
T42C8 98281:405 JLINK_ReadReg(BASEPRI)  returns 0x00000000 (0000ms, 543680ms total)
T42C8 98281:405 JLINK_ReadReg(CONTROL)  returns 0x00000000 (0000ms, 543680ms total)
T2E74 98281:412 JLINK_ReadReg(R15 (PC))  returns 0x00000948 (0000ms, 543680ms total)
T2E74 98281:412 JLINK_ReadReg(R13 (SP))  returns 0x20007FF0 (0000ms, 543680ms total)
T2E74 98281:412 JLINK_ReadMemHW(0x00000948, 0x0004 Bytes, ...) -- CPU_ReadMem(4 bytes @ 0x00000948) - Data: 10 B5 01 F0  returns 0x00 (0001ms, 543681ms total)
T42C8 98281:415 JLINK_ReadReg(R0)  returns 0x41004000 (0000ms, 543681ms total)
T42C8 98281:415 JLINK_ReadReg(R1)  returns 0x00000300 (0000ms, 543681ms total)
T42C8 98281:415 JLINK_ReadReg(R2)  returns 0x00000080 (0000ms, 543681ms total)
T42C8 98281:415 JLINK_ReadReg(R3)  returns 0x00000082 (0000ms, 543681ms total)
T42C8 98281:415 JLINK_ReadReg(R4)  returns 0x20000120 (0000ms, 543681ms total)
T42C8 98281:415 JLINK_ReadReg(R5)  returns 0x00003374 (0000ms, 543681ms total)
T42C8 98281:415 JLINK_ReadReg(R6)  returns 0x20000684 (0000ms, 543681ms total)
T42C8 98281:415 JLINK_ReadReg(R7)  returns 0x003B478F (0000ms, 543681ms total)
T42C8 98281:415 JLINK_ReadReg(R8)  returns 0x80000000 (0000ms, 543681ms total)
T42C8 98281:415 JLINK_ReadReg(R9)  returns 0x0000001D (0000ms, 543681ms total)
T42C8 98281:415 JLINK_ReadReg(R10)  returns 0x00000001 (0000ms, 543681ms total)
T42C8 98281:415 JLINK_ReadReg(R11)  returns 0x84000000 (0001ms, 543682ms total)
T42C8 98281:416 JLINK_ReadReg(R12)  returns 0x200005D8 (0000ms, 543682ms total)
T42C8 98281:416 JLINK_ReadReg(R13 (SP))  returns 0x20007FF0 (0000ms, 543682ms total)
T42C8 98281:416 JLINK_ReadReg(R14)  returns 0x000008B3 (0000ms, 543682ms total)
T42C8 98281:416 JLINK_ReadReg(R15 (PC))  returns 0x00000948 (0000ms, 543682ms total)
T42C8 98281:416 JLINK_ReadReg(APSR)  returns 0x00000000 (0000ms, 543682ms total)
T42C8 98281:416 JLINK_ReadReg(MSP)  returns 0x20007FF0 (0000ms, 543682ms total)
T42C8 98281:416 JLINK_ReadReg(PSP)  returns 0x9FD5FFDC (0000ms, 543682ms total)
T42C8 98281:416 JLINK_ReadReg(XPSR)  returns 0x01000000 (0000ms, 543682ms total)
T42C8 98281:416 JLINK_ReadReg(IPSR)  returns 0x00000000 (0000ms, 543682ms total)
T42C8 98281:416 JLINK_ReadReg(EPSR)  returns 0x01000000 (0000ms, 543682ms total)
T42C8 98281:416 JLINK_ReadReg(PRIMASK)  returns 0x00000000 (0000ms, 543682ms total)
T42C8 98281:416 JLINK_ReadReg(FAULTMASK)  returns 0x00000000 (0000ms, 543682ms total)
T42C8 98281:416 JLINK_ReadReg(BASEPRI)  returns 0x00000000 (0000ms, 543682ms total)
T42C8 98281:416 JLINK_ReadReg(CONTROL)  returns 0x00000000 (0000ms, 543682ms total)
T42C8 98281:454 JLINK_ReadReg(R0)  returns 0x41004000 (0000ms, 543682ms total)
T42C8 98281:454 JLINK_ReadReg(R1)  returns 0x00000300 (0000ms, 543682ms total)
T42C8 98281:454 JLINK_ReadReg(R2)  returns 0x00000080 (0000ms, 543682ms total)
T42C8 98281:454 JLINK_ReadReg(R3)  returns 0x00000082 (0000ms, 543682ms total)
T42C8 98281:454 JLINK_ReadReg(R4)  returns 0x20000120 (0000ms, 543682ms total)
T42C8 98281:454 JLINK_ReadReg(R5)  returns 0x00003374 (0000ms, 543682ms total)
T42C8 98281:454 JLINK_ReadReg(R6)  returns 0x20000684 (0000ms, 543682ms total)
T42C8 98281:454 JLINK_ReadReg(R7)  returns 0x003B478F (0000ms, 543682ms total)
T42C8 98281:454 JLINK_ReadReg(R8)  returns 0x80000000 (0000ms, 543682ms total)
T42C8 98281:454 JLINK_ReadReg(R9)  returns 0x0000001D (0000ms, 543682ms total)
T42C8 98281:454 JLINK_ReadReg(R10)  returns 0x00000001 (0000ms, 543682ms total)
T42C8 98281:454 JLINK_ReadReg(R11)  returns 0x84000000 (0000ms, 543682ms total)
T42C8 98281:454 JLINK_ReadReg(R12)  returns 0x200005D8 (0000ms, 543682ms total)
T42C8 98281:454 JLINK_ReadReg(R13 (SP))  returns 0x20007FF0 (0000ms, 543682ms total)
T42C8 98281:454 JLINK_ReadReg(R14)  returns 0x000008B3 (0000ms, 543682ms total)
T42C8 98281:454 JLINK_ReadReg(R15 (PC))  returns 0x00000948 (0000ms, 543682ms total)
T42C8 98281:454 JLINK_ReadReg(APSR)  returns 0x00000000 (0000ms, 543682ms total)
T42C8 98281:454 JLINK_ReadReg(MSP)  returns 0x20007FF0 (0000ms, 543682ms total)
T42C8 98281:454 JLINK_ReadReg(PSP)  returns 0x9FD5FFDC (0000ms, 543682ms total)
T42C8 98281:454 JLINK_ReadReg(XPSR)  returns 0x01000000 (0000ms, 543682ms total)
T42C8 98281:454 JLINK_ReadReg(IPSR)  returns 0x00000000 (0000ms, 543682ms total)
T42C8 98281:454 JLINK_ReadReg(EPSR)  returns 0x01000000 (0000ms, 543682ms total)
T42C8 98281:454 JLINK_ReadReg(PRIMASK)  returns 0x00000000 (0000ms, 543682ms total)
T42C8 98281:454 JLINK_ReadReg(FAULTMASK)  returns 0x00000000 (0000ms, 543682ms total)
T42C8 98281:454 JLINK_ReadReg(BASEPRI)  returns 0x00000000 (0000ms, 543682ms total)
T42C8 98281:454 JLINK_ReadReg(CONTROL)  returns 0x00000000 (0000ms, 543682ms total)
T42C8 98281:617 JLINK_ReadMem (0x40000800, 0x0004 Bytes, ...) -- CPU_ReadMem(4 bytes @ 0x40000800) - Data: 00 00 00 00  returns 0x00 (0001ms, 543683ms total)
T42C8 98281:630 JLINK_ReadMem (0x40000804, 0x0004 Bytes, ...) -- CPU_ReadMem(4 bytes @ 0x40000804) - Data: 00 00 00 00  returns 0x00 (0001ms, 543684ms total)
T4A94 98281:631 JLINK_IsHalted()  returns TRUE (0000ms, 543684ms total)
T42C8 98281:641 JLINK_ReadMem (0x40000808, 0x0004 Bytes, ...) -- CPU_ReadMem(4 bytes @ 0x40000808) - Data: FA 5A 00 00  returns 0x00 (0001ms, 543685ms total)
T42C8 98281:657 JLINK_ReadMem (0x4000080C, 0x0004 Bytes, ...) -- CPU_ReadMem(4 bytes @ 0x4000080C) - Data: DA 5A 00 00  returns 0x00 (0002ms, 543687ms total)
T42C8 98281:671 JLINK_ReadMem (0x40000810, 0x0002 Bytes, ...) -- CPU_ReadMem(2 bytes @ 0x40000810) - Data: 80 00  returns 0x00 (0001ms, 543688ms total)
T42C8 98281:686 JLINK_ReadMem (0x40000814, 0x0002 Bytes, ...) -- CPU_ReadMem(2 bytes @ 0x40000814) - Data: 0E 06  returns 0x00 (0002ms, 543690ms total)
T42C8 98281:699 JLINK_ReadMem (0x40000818, 0x0004 Bytes, ...) -- CPU_ReadMem(4 bytes @ 0x40000818) - Data: 80 00 3F 00  returns 0x00 (0001ms, 543691ms total)
T42C8 98281:732 JLINK_ReadMem (0x4000081C, 0x0001 Bytes, ...) -- CPU_ReadMem(1 bytes @ 0x4000081C) - Data: 15  returns 0x00 (0001ms, 543692ms total)
T42C8 98281:810 JLINK_ReadReg(R0)  returns 0x41004000 (0000ms, 543692ms total)
T42C8 98281:810 JLINK_ReadReg(R1)  returns 0x00000300 (0000ms, 543692ms total)
T42C8 98281:810 JLINK_ReadReg(R2)  returns 0x00000080 (0000ms, 543692ms total)
T42C8 98281:810 JLINK_ReadReg(R3)  returns 0x00000082 (0000ms, 543692ms total)
T42C8 98281:810 JLINK_ReadReg(R4)  returns 0x20000120 (0000ms, 543692ms total)
T42C8 98281:810 JLINK_ReadReg(R5)  returns 0x00003374 (0000ms, 543692ms total)
T42C8 98281:810 JLINK_ReadReg(R6)  returns 0x20000684 (0000ms, 543692ms total)
T42C8 98281:810 JLINK_ReadReg(R7)  returns 0x003B478F (0000ms, 543692ms total)
T42C8 98281:810 JLINK_ReadReg(R8)  returns 0x80000000 (0000ms, 543692ms total)
T42C8 98281:810 JLINK_ReadReg(R9)  returns 0x0000001D (0000ms, 543692ms total)
T42C8 98281:810 JLINK_ReadReg(R10)  returns 0x00000001 (0000ms, 543692ms total)
T42C8 98281:810 JLINK_ReadReg(R11)  returns 0x84000000 (0000ms, 543692ms total)
T42C8 98281:810 JLINK_ReadReg(R12)  returns 0x200005D8 (0000ms, 543692ms total)
T42C8 98281:810 JLINK_ReadReg(R13 (SP))  returns 0x20007FF0 (0000ms, 543692ms total)
T42C8 98281:810 JLINK_ReadReg(R14)  returns 0x000008B3 (0000ms, 543692ms total)
T42C8 98281:810 JLINK_ReadReg(R15 (PC))  returns 0x00000948 (0000ms, 543692ms total)
T42C8 98281:810 JLINK_ReadReg(APSR)  returns 0x00000000 (0000ms, 543692ms total)
T42C8 98281:810 JLINK_ReadReg(MSP)  returns 0x20007FF0 (0000ms, 543692ms total)
T42C8 98281:810 JLINK_ReadReg(PSP)  returns 0x9FD5FFDC (0000ms, 543692ms total)
T42C8 98281:811 JLINK_ReadReg(XPSR)  returns 0x01000000 (0000ms, 543693ms total)
T42C8 98281:811 JLINK_ReadReg(IPSR)  returns 0x00000000 (0000ms, 543693ms total)
T42C8 98281:811 JLINK_ReadReg(EPSR)  returns 0x01000000 (0000ms, 543693ms total)
T42C8 98281:811 JLINK_ReadReg(PRIMASK)  returns 0x00000000 (0000ms, 543693ms total)
T42C8 98281:811 JLINK_ReadReg(FAULTMASK)  returns 0x00000000 (0000ms, 543693ms total)
T42C8 98281:811 JLINK_ReadReg(BASEPRI)  returns 0x00000000 (0000ms, 543693ms total)
T42C8 98281:811 JLINK_ReadReg(CONTROL)  returns 0x00000000 (0000ms, 543693ms total)
T4A94 98281:831 JLINK_IsHalted()  returns TRUE (0000ms, 543693ms total)
T42C8 98281:935 JLINK_ReadMem (0x5FFFFABA, 0x0546 Bytes, ...) -- CPU_ReadMem(1350 bytes @ 0x5FFFFABA) - Data: AA AA AA AA AA AA AA AA AA AA AA AA AA AA AA AA ...  returns 0x01 (0010ms, 543703ms total)
T42C8 98281:945 JLINK_ReadMem (0x5FFFFABA, 0x0001 Bytes, ...) -- CPU_ReadMem(1 bytes @ 0x5FFFFABA) - Data: AA  returns 0x01 (0001ms, 543704ms total)
T42C8 98281:946 JLINK_ReadMem (0x5FFFFABB, 0x0001 Bytes, ...) -- CPU_ReadMem(1 bytes @ 0x5FFFFABB) - Data: AA  returns 0x01 (0002ms, 543706ms total)
T42C8 98281:948 JLINK_ReadMem (0x5FFFFABC, 0x0004 Bytes, ...) -- CPU_ReadMem(4 bytes @ 0x5FFFFABC) - Data: AA AA AA AA  returns 0x01 (0001ms, 543707ms total)
T42C8 98281:949 JLINK_ReadMem (0x5FFFFAC0, 0x0004 Bytes, ...) -- CPU_ReadMem(4 bytes @ 0x5FFFFAC0) - Data: AA AA AA AA  returns 0x01 (0001ms, 543708ms total)
T42C8 98281:950 JLINK_ReadMem (0x5FFFFAC4, 0x0004 Bytes, ...) -- CPU_ReadMem(4 bytes @ 0x5FFFFAC4) - Data: AA AA AA AA  returns 0x01 (0002ms, 543710ms total)
T42C8 98281:952 JLINK_ReadMem (0x5FFFFAC8, 0x0004 Bytes, ...) -- CPU_ReadMem(4 bytes @ 0x5FFFFAC8) - Data: AA AA AA AA  returns 0x01 (0002ms, 543712ms total)
T42C8 98281:954 JLINK_ReadMem (0x5FFFFACC, 0x0004 Bytes, ...) -- CPU_ReadMem(4 bytes @ 0x5FFFFACC) - Data: AA AA AA AA  returns 0x01 (0001ms, 543713ms total)
T42C8 98281:955 JLINK_ReadMem (0x5FFFFAD0, 0x0004 Bytes, ...) -- CPU_ReadMem(4 bytes @ 0x5FFFFAD0) - Data: AA AA AA AA  returns 0x01 (0001ms, 543714ms total)
T42C8 98281:956 JLINK_ReadMem (0x5FFFFAD4, 0x0004 Bytes, ...) -- CPU_ReadMem(4 bytes @ 0x5FFFFAD4) - Data: AA AA AA AA  returns 0x01 (0002ms, 543716ms total)
T42C8 98281:958 JLINK_ReadMem (0x5FFFFAD8, 0x0004 Bytes, ...) -- CPU_ReadMem(4 bytes @ 0x5FFFFAD8) - Data: AA AA AA AA  returns 0x01 (0001ms, 543717ms total)
T42C8 98281:959 JLINK_ReadMem (0x5FFFFADC, 0x0004 Bytes, ...) -- CPU_ReadMem(4 bytes @ 0x5FFFFADC) - Data: AA AA AA AA  returns 0x01 (0002ms, 543719ms total)
T42C8 98281:961 JLINK_ReadMem (0x5FFFFAE0, 0x0004 Bytes, ...) -- CPU_ReadMem(4 bytes @ 0x5FFFFAE0) - Data: AA AA AA AA  returns 0x01 (0001ms, 543720ms total)
T42C8 98281:962 JLINK_ReadMem (0x5FFFFAE4, 0x0004 Bytes, ...) -- CPU_ReadMem(4 bytes @ 0x5FFFFAE4) - Data: AA AA AA AA  returns 0x01 (0001ms, 543721ms total)
T42C8 98281:964 JLINK_ReadMem (0x5FFFFAE8, 0x0004 Bytes, ...) -- CPU_ReadMem(4 bytes @ 0x5FFFFAE8) - Data: AA AA AA AA  returns 0x01 (0001ms, 543722ms total)
T42C8 98281:965 JLINK_ReadMem (0x5FFFFAEC, 0x0004 Bytes, ...) -- CPU_ReadMem(4 bytes @ 0x5FFFFAEC) - Data: AA AA AA AA  returns 0x01 (0001ms, 543723ms total)
T42C8 98281:967 JLINK_ReadMem (0x5FFFFAF0, 0x0004 Bytes, ...) -- CPU_ReadMem(4 bytes @ 0x5FFFFAF0) - Data: AA AA AA AA  returns 0x01 (0001ms, 543724ms total)
T42C8 98281:968 JLINK_ReadMem (0x5FFFFAF4, 0x0004 Bytes, ...) -- CPU_ReadMem(4 bytes @ 0x5FFFFAF4) - Data: AA AA AA AA  returns 0x01 (0001ms, 543725ms total)
T42C8 98281:969 JLINK_ReadMem (0x5FFFFAF8, 0x0004 Bytes, ...) -- CPU_ReadMem(4 bytes @ 0x5FFFFAF8) - Data: AA AA AA AA  returns 0x01 (0002ms, 543727ms total)
T42C8 98281:971 JLINK_ReadMem (0x5FFFFAFC, 0x0004 Bytes, ...) -- CPU_ReadMem(4 bytes @ 0x5FFFFAFC) - Data: AA AA AA AA  returns 0x01 (0002ms, 543729ms total)
T42C8 98281:973 JLINK_ReadMem (0x5FFFFB00, 0x0004 Bytes, ...) -- CPU_ReadMem(4 bytes @ 0x5FFFFB00) - Data: AA AA AA AA  returns 0x01 (0001ms, 543730ms total)
T42C8 98281:974 JLINK_ReadMem (0x5FFFFB04, 0x0004 Bytes, ...) -- CPU_ReadMem(4 bytes @ 0x5FFFFB04) - Data: AA AA AA AA  returns 0x01 (0002ms, 543732ms total)
T42C8 98281:976 JLINK_ReadMem (0x5FFFFB08, 0x0004 Bytes, ...) -- CPU_ReadMem(4 bytes @ 0x5FFFFB08) - Data: AA AA AA AA  returns 0x01 (0001ms, 543733ms total)
T42C8 98281:977 JLINK_ReadMem (0x5FFFFB0C, 0x0004 Bytes, ...) -- CPU_ReadMem(4 bytes @ 0x5FFFFB0C) - Data: AA AA AA AA  returns 0x01 (0002ms, 543735ms total)
T42C8 98281:979 JLINK_ReadMem (0x5FFFFB10, 0x0004 Bytes, ...) -- CPU_ReadMem(4 bytes @ 0x5FFFFB10) - Data: AA AA AA AA  returns 0x01 (0001ms, 543736ms total)
T42C8 98281:980 JLINK_ReadMem (0x5FFFFB14, 0x0004 Bytes, ...) -- CPU_ReadMem(4 bytes @ 0x5FFFFB14) - Data: AA AA AA AA  returns 0x01 (0002ms, 543738ms total)
T42C8 98281:982 JLINK_ReadMem (0x5FFFFB18, 0x0004 Bytes, ...) -- CPU_ReadMem(4 bytes @ 0x5FFFFB18) - Data: AA AA AA AA  returns 0x01 (0001ms, 543739ms total)
T42C8 98281:983 JLINK_ReadMem (0x5FFFFB1C, 0x0004 Bytes, ...) -- CPU_ReadMem(4 bytes @ 0x5FFFFB1C) - Data: AA AA AA AA  returns 0x01 (0002ms, 543741ms total)
T42C8 98281:985 JLINK_ReadMem (0x5FFFFB20, 0x0004 Bytes, ...) -- CPU_ReadMem(4 bytes @ 0x5FFFFB20) - Data: AA AA AA AA  returns 0x01 (0001ms, 543742ms total)
T42C8 98281:986 JLINK_ReadMem (0x5FFFFB24, 0x0004 Bytes, ...) -- CPU_ReadMem(4 bytes @ 0x5FFFFB24) - Data: AA AA AA AA  returns 0x01 (0002ms, 543744ms total)
T42C8 98281:988 JLINK_ReadMem (0x5FFFFB28, 0x0004 Bytes, ...) -- CPU_ReadMem(4 bytes @ 0x5FFFFB28) - Data: AA AA AA AA  returns 0x01 (0001ms, 543745ms total)
T42C8 98281:989 JLINK_ReadMem (0x5FFFFB2C, 0x0004 Bytes, ...) -- CPU_ReadMem(4 bytes @ 0x5FFFFB2C) - Data: AA AA AA AA  returns 0x01 (0002ms, 543747ms total)
T42C8 98281:991 JLINK_ReadMem (0x5FFFFB30, 0x0004 Bytes, ...) -- CPU_ReadMem(4 bytes @ 0x5FFFFB30) - Data: AA AA AA AA  returns 0x01 (0001ms, 543748ms total)
T4A94 98282:031 JLINK_IsHalted()  returns TRUE (0001ms, 543749ms total)
T42C8 98282:047 JLINK_ReadMem (0x20000000, 0x14A0 Bytes, ...) -- CPU_ReadMem(5312 bytes @ 0x20000000) -- Updating C cache (5312 bytes @ 0x20000000) -- Read from C cache (5280 bytes @ 0x20000000) - Data: 00 00 00 00 FF FF FF FF 00 C2 01 00 00 00 08 00 ...  returns 0x00 (0111ms, 543859ms total)
T42C8 98282:179 JLINK_ReadMem (0x20000000, 0x14A0 Bytes, ...) -- Read from C cache (5280 bytes @ 0x20000000) - Data: 00 00 00 00 FF FF FF FF 00 C2 01 00 00 00 08 00 ...  returns 0x00 (0000ms, 543859ms total)
T4A94 98282:233 JLINK_IsHalted()  returns TRUE (0000ms, 543859ms total)
T3918 98282:236 JLINK_EMU_GetList(InterfaceMask = 0x00000001, MaxInfos = 0x00000032) [0]: USB, S/N: 56002453  returns 0x01 (0002ms, 543861ms total)
T4A94 98282:433 JLINK_IsHalted()  returns TRUE (0000ms, 543861ms total)
T4A94 98282:633 JLINK_IsHalted()  returns TRUE (0001ms, 543862ms total)
T4A94 98282:834 JLINK_IsHalted()  returns TRUE (0000ms, 543861ms total)
T4A94 98283:034 JLINK_IsHalted()  returns TRUE (0000ms, 543861ms total)
T4A94 98283:234 JLINK_IsHalted()  returns TRUE (0002ms, 543863ms total)
T4A94 98283:436 JLINK_IsHalted()  returns TRUE (0000ms, 543861ms total)
T3918 98283:587 JLINK_EMU_GetList(InterfaceMask = 0x00000001, MaxInfos = 0x00000032) [0]: USB, S/N: 56002453  returns 0x01 (0004ms, 543865ms total)
T4A94 98283:636 JLINK_IsHalted()  returns TRUE (0000ms, 543865ms total)
T4A94 98283:836 JLINK_IsHalted()  returns TRUE (0001ms, 543866ms total)
T4A94 98284:037 JLINK_IsHalted()  returns TRUE (0000ms, 543865ms total)
T4A94 98284:237 JLINK_IsHalted()  returns TRUE (0000ms, 543865ms total)
T4A94 98284:437 JLINK_IsHalted()  returns TRUE (0001ms, 543866ms total)
T4A94 98284:638 JLINK_IsHalted()  returns TRUE (0000ms, 543865ms total)
T4A94 98284:838 JLINK_IsHalted()  returns TRUE (0000ms, 543865ms total)
T3918 98284:936 JLINK_EMU_GetList(InterfaceMask = 0x00000001, MaxInfos = 0x00000032) [0]: USB, S/N: 56002453  returns 0x01 (0004ms, 543869ms total)
T4A94 98285:038 JLINK_IsHalted()  returns TRUE (0001ms, 543870ms total)
T4A94 98285:239 JLINK_IsHalted()  returns TRUE (0000ms, 543869ms total)
T4A94 98285:439 JLINK_IsHalted()  returns TRUE (0000ms, 543869ms total)
T4A94 98285:639 JLINK_IsHalted()  returns TRUE (0001ms, 543870ms total)
T4A94 98285:840 JLINK_IsHalted()  returns TRUE (0000ms, 543869ms total)
T4A94 98286:040 JLINK_IsHalted()  returns TRUE (0000ms, 543869ms total)
T4A94 98286:240 JLINK_IsHalted()  returns TRUE (0030ms, 543899ms total)
T3918 98286:286 JLINK_EMU_GetList(InterfaceMask = 0x00000001, MaxInfos = 0x00000032) [0]: USB, S/N: 56002453  returns 0x01 (0003ms, 543872ms total)
T4A94 98286:482 JLINK_IsHalted()  returns TRUE (0000ms, 543872ms total)
T4A94 98286:682 JLINK_IsHalted()  returns TRUE (0000ms, 543872ms total)
T4A94 98286:882 JLINK_IsHalted()  returns TRUE (0001ms, 543873ms total)
T4A94 98287:083 JLINK_IsHalted()  returns TRUE (0000ms, 543872ms total)
T4A94 98287:283 JLINK_IsHalted()  returns TRUE (0000ms, 543872ms total)
T4A94 98287:483 JLINK_IsHalted()  returns TRUE (0001ms, 543873ms total)
T3918 98287:635 JLINK_EMU_GetList(InterfaceMask = 0x00000001, MaxInfos = 0x00000032) [0]: USB, S/N: 56002453  returns 0x01 (0003ms, 543875ms total)
T4A94 98287:684 JLINK_IsHalted()  returns TRUE (0000ms, 543875ms total)
T4A94 98287:884 JLINK_IsHalted()  returns TRUE (0000ms, 543875ms total)
T4A94 98288:084 JLINK_IsHalted()  returns TRUE (0001ms, 543876ms total)
T4A94 98288:285 JLINK_IsHalted()  returns TRUE (0000ms, 543875ms total)
T4A94 98288:485 JLINK_IsHalted()  returns TRUE (0000ms, 543875ms total)
T4A94 98288:685 JLINK_IsHalted()  returns TRUE (0001ms, 543876ms total)
T4A94 98288:886 JLINK_IsHalted()  returns TRUE (0000ms, 543875ms total)
T3918 98288:985 JLINK_EMU_GetList(InterfaceMask = 0x00000001, MaxInfos = 0x00000032) [0]: USB, S/N: 56002453  returns 0x01 (0004ms, 543879ms total)
T4A94 98289:086 JLINK_IsHalted()  returns TRUE (0000ms, 543879ms total)
T4A94 98289:286 JLINK_IsHalted()  returns TRUE (0001ms, 543880ms total)
T4A94 98289:487 JLINK_IsHalted()  returns TRUE (0000ms, 543879ms total)
T4A94 98289:687 JLINK_IsHalted()  returns TRUE (0000ms, 543879ms total)
T4A94 98289:887 JLINK_IsHalted()  returns TRUE (0001ms, 543880ms total)
T4A94 98290:088 JLINK_IsHalted()  returns TRUE (0000ms, 543879ms total)
T4A94 98290:288 JLINK_IsHalted()  returns TRUE (0000ms, 543879ms total)
T3918 98290:336 JLINK_EMU_GetList(InterfaceMask = 0x00000001, MaxInfos = 0x00000032) [0]: USB, S/N: 56002453  returns 0x01 (0003ms, 543882ms total)
T4A94 98290:488 JLINK_IsHalted()  returns TRUE (0001ms, 543883ms total)
T4A94 98290:689 JLINK_IsHalted()  returns TRUE (0000ms, 543882ms total)
T4A94 98290:889 JLINK_IsHalted()  returns TRUE (0000ms, 543882ms total)
T4A94 98291:089 JLINK_IsHalted()  returns TRUE (0001ms, 543883ms total)
T4A94 98291:290 JLINK_IsHalted()  returns TRUE (0000ms, 543882ms total)
T4A94 98291:490 JLINK_IsHalted()  returns TRUE (0000ms, 543882ms total)
T2E74 98291:575 JLINK_ReadReg(R15 (PC))  returns 0x00000948 (0000ms, 543882ms total)
T2E74 98291:575 JLINK_Go() -- CPU_WriteMem(4 bytes @ 0xE0002000) -- CPU_WriteMem(4 bytes @ 0xE0002000) -- CPU_WriteMem(4 bytes @ 0xE0001000) -- CPU_ReadMem(4 bytes @ 0xE0001000) -- CPU_WriteMem(4 bytes @ 0xE000ED30) -- CPU_WriteMem(4 bytes @ 0xE0001000) -- CPU_WriteMem(4 bytes @ 0xE0001020) -- CPU_WriteMem(4 bytes @ 0xE0001030) -- CPU_WriteMem(4 bytes @ 0xE0001024) -- CPU_WriteMem(4 bytes @ 0xE0001034) -- CPU_WriteMem(4 bytes @ 0xE0001028) -- CPU_WriteMem(4 bytes @ 0xE0001038)
 -- CPU_WriteMem(4 bytes @ 0xE0002010) (0011ms, 543893ms total)
T4A94 98291:587 JLINK_IsHalted()  returns TRUE (0006ms, 543899ms total)
T4A94 98291:593 JLINK_GetMOEs(...) -- CPU_ReadMem(4 bytes @ 0xE000ED30)  returns 0x01 (0002ms, 543895ms total)
T4A94 98291:595 JLINK_ReadReg(R15 (PC))  returns 0x000002CA (0000ms, 543895ms total)
T2E74 98291:597 JLINK_ReadReg(R15 (PC))  returns 0x000002CA (0000ms, 543895ms total)
T2E74 98291:597 JLINK_ReadReg(R13 (SP))  returns 0x20007FD0 (0000ms, 543895ms total)
T2E74 98291:597 JLINK_ReadMemHW(0x000002CA, 0x0004 Bytes, ...) -- CPU_ReadMem(4 bytes @ 0x000002CA) - Data: 0E 20 01 F0  returns 0x00 (0002ms, 543897ms total)
T2E74 98291:641 JLINK_ReadMem (0x20007FD4, 0x0004 Bytes, ...) -- CPU_ReadMem(64 bytes @ 0x20007FC0) -- Updating C cache (64 bytes @ 0x20007FC0) -- Read from C cache (4 bytes @ 0x20007FD4) - Data: ED 03 00 00  returns 0x00 (0003ms, 543901ms total)
T2E74 98291:644 JLINK_ReadMem (0x20007FD4, 0x0004 Bytes, ...) -- Read from C cache (4 bytes @ 0x20007FD4) - Data: ED 03 00 00  returns 0x00 (0000ms, 543901ms total)
T2E74 98291:644 JLINK_ReadMemHW(0x000003EC, 0x0004 Bytes, ...) -- CPU_ReadMem(4 bytes @ 0x000003EC) - Data: FF F7 0E FF  returns 0x00 (0002ms, 543903ms total)
T2E74 98291:646 JLINK_ReadMem (0x20007FE4, 0x0004 Bytes, ...) -- Read from C cache (4 bytes @ 0x20007FE4) - Data: 6F 09 00 00  returns 0x00 (0000ms, 543903ms total)
T2E74 98291:647 JLINK_ReadMem (0x20007FE4, 0x0004 Bytes, ...) -- Read from C cache (4 bytes @ 0x20007FE4) - Data: 6F 09 00 00  returns 0x00 (0000ms, 543903ms total)
T2E74 98291:647 JLINK_ReadMem (0x20007FD4, 0x0004 Bytes, ...) -- Read from C cache (4 bytes @ 0x20007FD4) - Data: ED 03 00 00  returns 0x00 (0000ms, 543903ms total)
T2E74 98291:647 JLINK_ReadMem (0x20007FE4, 0x0004 Bytes, ...) -- Read from C cache (4 bytes @ 0x20007FE4) - Data: 6F 09 00 00  returns 0x00 (0000ms, 543903ms total)
T2E74 98291:647 JLINK_ReadMemHW(0x0000096E, 0x0004 Bytes, ...) -- CPU_ReadMem(4 bytes @ 0x0000096E) - Data: FF F7 5B FD  returns 0x00 (0002ms, 543905ms total)
T3918 98291:685 JLINK_EMU_GetList(InterfaceMask = 0x00000001, MaxInfos = 0x00000032) [0]: USB, S/N: 56002453  returns 0x01 (0003ms, 543908ms total)
T42C8 98291:699 JLINK_ReadReg(R0)  returns 0x0000000A (0000ms, 543908ms total)
T42C8 98291:699 JLINK_ReadReg(R1)  returns 0x00002580 (0000ms, 543908ms total)
T42C8 98291:699 JLINK_ReadReg(R2)  returns 0x20007FDC (0000ms, 543908ms total)
T42C8 98291:699 JLINK_ReadReg(R3)  returns 0x2000008C (0000ms, 543908ms total)
T42C8 98291:699 JLINK_ReadReg(R4)  returns 0x20000314 (0000ms, 543908ms total)
T42C8 98291:699 JLINK_ReadReg(R5)  returns 0x00003374 (0000ms, 543908ms total)
T42C8 98291:699 JLINK_ReadReg(R6)  returns 0x20000684 (0000ms, 543908ms total)
T42C8 98291:699 JLINK_ReadReg(R7)  returns 0x003B478F (0000ms, 543908ms total)
T42C8 98291:700 JLINK_ReadReg(R8)  returns 0x80000000 (0000ms, 543909ms total)
T42C8 98291:700 JLINK_ReadReg(R9)  returns 0x0000001D (0000ms, 543909ms total)
T42C8 98291:700 JLINK_ReadReg(R10)  returns 0x00000001 (0000ms, 543909ms total)
T42C8 98291:700 JLINK_ReadReg(R11)  returns 0x84000000 (0000ms, 543909ms total)
T42C8 98291:700 JLINK_ReadReg(R12)  returns 0x200005D8 (0000ms, 543909ms total)
T42C8 98291:700 JLINK_ReadReg(R13 (SP))  returns 0x20007FD0 (0000ms, 543909ms total)
T42C8 98291:700 JLINK_ReadReg(R14)  returns 0x000003ED (0000ms, 543909ms total)
T42C8 98291:700 JLINK_ReadReg(R15 (PC))  returns 0x000002CA (0000ms, 543909ms total)
T42C8 98291:700 JLINK_ReadReg(APSR)  returns 0x00000000 (0000ms, 543909ms total)
T42C8 98291:700 JLINK_ReadReg(MSP)  returns 0x20007FD0 (0000ms, 543909ms total)
T42C8 98291:700 JLINK_ReadReg(PSP)  returns 0x9FD5FFDC (0000ms, 543909ms total)
T42C8 98291:700 JLINK_ReadReg(XPSR)  returns 0x01000000 (0000ms, 543909ms total)
T42C8 98291:700 JLINK_ReadReg(IPSR)  returns 0x00000000 (0000ms, 543909ms total)
T42C8 98291:700 JLINK_ReadReg(EPSR)  returns 0x01000000 (0000ms, 543909ms total)
T42C8 98291:700 JLINK_ReadReg(PRIMASK)  returns 0x00000000 (0000ms, 543909ms total)
T42C8 98291:700 JLINK_ReadReg(FAULTMASK)  returns 0x00000000 (0000ms, 543909ms total)
T42C8 98291:700 JLINK_ReadReg(BASEPRI)  returns 0x00000000 (0000ms, 543909ms total)
T42C8 98291:700 JLINK_ReadReg(CONTROL)  returns 0x00000000 (0000ms, 543909ms total)
T4A94 98291:795 JLINK_IsHalted()  returns TRUE (0000ms, 543909ms total)
T42C8 98291:821 JLINK_ReadMem (0x5FFFFABA, 0x0546 Bytes, ...) -- CPU_ReadMem(1350 bytes @ 0x5FFFFABA) - Data: AA AA AA AA AA AA AA AA AA AA AA AA AA AA AA AA ...  returns 0x01 (0009ms, 543918ms total)
T42C8 98291:830 JLINK_ReadMem (0x5FFFFABA, 0x0001 Bytes, ...) -- CPU_ReadMem(1 bytes @ 0x5FFFFABA) - Data: AA  returns 0x01 (0002ms, 543920ms total)
T42C8 98291:832 JLINK_ReadMem (0x5FFFFABB, 0x0001 Bytes, ...) -- CPU_ReadMem(1 bytes @ 0x5FFFFABB) - Data: AA  returns 0x01 (0001ms, 543921ms total)
T42C8 98291:833 JLINK_ReadMem (0x5FFFFABC, 0x0004 Bytes, ...) -- CPU_ReadMem(4 bytes @ 0x5FFFFABC) - Data: AA AA AA AA  returns 0x01 (0002ms, 543923ms total)
T42C8 98291:835 JLINK_ReadMem (0x5FFFFAC0, 0x0004 Bytes, ...) -- CPU_ReadMem(4 bytes @ 0x5FFFFAC0) - Data: AA AA AA AA  returns 0x01 (0001ms, 543924ms total)
T42C8 98291:837 JLINK_ReadMem (0x5FFFFAC4, 0x0004 Bytes, ...) -- CPU_ReadMem(4 bytes @ 0x5FFFFAC4) - Data: AA AA AA AA  returns 0x01 (0001ms, 543926ms total)
T42C8 98291:838 JLINK_ReadMem (0x5FFFFAC8, 0x0004 Bytes, ...) -- CPU_ReadMem(4 bytes @ 0x5FFFFAC8) - Data: AA AA AA AA  returns 0x01 (0002ms, 543928ms total)
T42C8 98291:840 JLINK_ReadMem (0x5FFFFACC, 0x0004 Bytes, ...) -- CPU_ReadMem(4 bytes @ 0x5FFFFACC) - Data: AA AA AA AA  returns 0x01 (0001ms, 543929ms total)
T42C8 98291:841 JLINK_ReadMem (0x5FFFFAD0, 0x0004 Bytes, ...) -- CPU_ReadMem(4 bytes @ 0x5FFFFAD0) - Data: AA AA AA AA  returns 0x01 (0002ms, 543931ms total)
T42C8 98291:843 JLINK_ReadMem (0x5FFFFAD4, 0x0004 Bytes, ...) -- CPU_ReadMem(4 bytes @ 0x5FFFFAD4) - Data: AA AA AA AA  returns 0x01 (0001ms, 543932ms total)
T42C8 98291:844 JLINK_ReadMem (0x5FFFFAD8, 0x0004 Bytes, ...) -- CPU_ReadMem(4 bytes @ 0x5FFFFAD8) - Data: AA AA AA AA  returns 0x01 (0002ms, 543934ms total)
T42C8 98291:846 JLINK_ReadMem (0x5FFFFADC, 0x0004 Bytes, ...) -- CPU_ReadMem(4 bytes @ 0x5FFFFADC) - Data: AA AA AA AA  returns 0x01 (0002ms, 543936ms total)
T42C8 98291:848 JLINK_ReadMem (0x5FFFFAE0, 0x0004 Bytes, ...) -- CPU_ReadMem(4 bytes @ 0x5FFFFAE0) - Data: AA AA AA AA  returns 0x01 (0001ms, 543937ms total)
T42C8 98291:850 JLINK_ReadMem (0x5FFFFAE4, 0x0004 Bytes, ...) -- CPU_ReadMem(4 bytes @ 0x5FFFFAE4) - Data: AA AA AA AA  returns 0x01 (0001ms, 543939ms total)
